
T2B68 000:607 SEGGER J-Link V4.90 Log File (0025ms, 0303ms total)
T2B68 000:607 DLL Compiled: Jul 28 2014 10:35:20 (0025ms, 0303ms total)
T2B68 000:607 Logging started @ 2018-03-27 09:04 (0025ms, 0303ms total)
T2B68 000:632 JLINK_SetWarnOutHandler(...) (0000ms, 0303ms total)
T2B68 000:632 JLINK_OpenEx(...)
Firmware: J-Link ARM V8 compiled Jan 31 2018 18:34:52
Hardware: V8.00
S/N: 20080643
Feature(s): RDI,FlashDL,FlashBP,JFlash,GDBFull  returns O.K. (0278ms, 0581ms total)
T2B68 000:910 JLINK_SetErrorOutHandler(...) (0000ms, 0581ms total)
T2B68 000:910 JLINK_ExecCommand("ProjectFile = "D:\ÏîÄ¿\EAR_F030\User\JLinkSettings.ini"", ...)  returns 0x00 (0001ms, 0582ms total)
T2B68 000:928 JLINK_ExecCommand("Device = STM32F030F4", ...)Device "STM32F030F4" selected (16 KB flash, 4 KB RAM).  returns 0x00 (0015ms, 0597ms total)
T2B68 000:943 JLINK_ExecCommand("DisableConnectionTimeout", ...)  returns 0x01 (0000ms, 0597ms total)
T2B68 000:943 JLINK_GetHardwareVersion()  returns 0x13880 (0000ms, 0597ms total)
T2B68 000:943 JLINK_GetDLLVersion()  returns 49000 (0000ms, 0597ms total)
T2B68 000:943 JLINK_GetFirmwareString(...) (0000ms, 0597ms total)
T2B68 000:967 JLINK_GetDLLVersion()  returns 49000 (0000ms, 0597ms total)
T2B68 000:967 JLINK_GetCompileDateTime() (0000ms, 0597ms total)
T2B68 000:974 JLINK_GetFirmwareString(...) (0000ms, 0597ms total)
T2B68 000:980 JLINK_GetHardwareVersion()  returns 0x13880 (0000ms, 0597ms total)
T2B68 001:015 JLINK_TIF_Select(JLINKARM_TIF_SWD)  returns 0x00 (0001ms, 0598ms total)
T2B68 001:016 JLINK_SetSpeed(5000) (0000ms, 0598ms total)
T2B68 001:016 JLINK_GetId() >0x108 TIF>Found SWD-DP with ID 0x0BB11477 >0x0D TIF> >0x28 TIF> >0x0D TIF> >0x28 TIF> >0x0D TIF> >0x21 TIF> >0x0D TIF> >0x21 TIF> >0x0D TIF> >0x21 TIF> >0x0D TIF> >0x21 TIF> >0x0D TIF> >0x21 TIF> >0x0D TIF> >0x21 TIF> >0x0D TIF> >0x21 TIF> >0x0D TIF> >0x21 TIF> >0x0D TIF> >0x21 TIF> >0x0D TIF> >0x21 TIF> >0x0D TIF> >0x21 TIF> >0x0D TIF> >0x21 TIF> >0x0D TIF> >0x21 TIF> >0x0D TIF> >0x21 TIF> >0x0D TIF> >0x21 TIF> >0x0D TIF> >0x21 TIF> >0x0D TIF> >0x21 TIF> >0x0D TIF>
 >0x21 TIF> >0x0D TIF> >0x21 TIF> >0x0D TIF> >0x21 TIF> >0x0D TIF> >0x21 TIF> >0x0D TIF> >0x21 TIF> >0x0D TIF> >0x21 TIF> >0x0D TIF> >0x21 TIF> >0x0D TIF> >0x21 TIF> >0x0D TIF> >0x21 TIF> >0x0D TIF> >0x21 TIF> >0x0D TIF> >0x21 TIF> >0x0D TIF> >0x21 TIF> >0x0D TIF> >0x21 TIF> >0x0D TIF> >0x21 TIF> >0x0D TIF> >0x21 TIF> >0x0D TIF> >0x21 TIF> >0x0D TIF> >0x21 TIF> >0x0D TIF> >0x21 TIF> >0x0D TIF> >0x21 TIF> >0x0D TIF> >0x21 TIF> >0x0D TIF> >0x21 TIF> >0x0D TIF> >0x21 TIF> >0x0D TIF> >0x21 TIF> >0x0D TIF>
 >0x21 TIF> >0x0D TIF> >0x21 TIF> >0x0D TIF> >0x21 TIF> >0x0D TIF> >0x21 TIF> >0x0D TIF> >0x21 TIF> >0x0D TIF> >0x21 TIF> >0x0D TIF> >0x21 TIF> >0x0D TIF> >0x21 TIF> >0x0D TIF> >0x21 TIF> >0x0D TIF> >0x21 TIF> >0x0D TIF> >0x21 TIF> >0x0D TIF> >0x21 TIF> >0x0D TIF> >0x21 TIF> >0x0D TIF> >0x21 TIF> >0x0D TIF> >0x21 TIF> >0x0D TIF> >0x21 TIF> >0x0D TIF> >0x21 TIF> >0x0D TIF> >0x21 TIF> >0x0D TIF> >0x21 TIF> >0x0D TIF> >0x21 TIF> >0x0D TIF> >0x21 TIF> >0x0D TIF> >0x21 TIF> >0x0D TIF> >0x21 TIF> >0x0D TIF>
 >0x21 TIF> >0x0D TIF> >0x21 TIF> >0x0D TIF> >0x21 TIF> >0x0D TIF> >0x21 TIF> >0x0D TIF> >0x21 TIF> >0x0D TIF> >0x21 TIF> >0x0D TIF> >0x21 TIF> >0x0D TIF> >0x21 TIF> >0x0D TIF> >0x21 TIF> >0x0D TIF> >0x21 TIF> >0x0D TIF> >0x21 TIF> >0x0D TIF> >0x21 TIF> >0x0D TIF> >0x21 TIF> >0x0D TIF> >0x21 TIF> >0x0D TIF> >0x21 TIF> >0x0D TIF> >0x21 TIF> >0x0D TIF> >0x21 TIF> >0x0D TIF> >0x21 TIF> >0x0D TIF> >0x21 TIF> >0x0D TIF> >0x21 TIF> >0x0D TIF> >0x21 TIF> >0x0D TIF> >0x21 TIF> >0x0D TIF> >0x21 TIF> >0x0D TIF>
 >0x21 TIF> >0x0D TIF> >0x21 TIF> >0x0D TIF> >0x21 TIF> >0x0D TIF> >0x21 TIF> >0x0D TIF> >0x21 TIF> >0x0D TIF> >0x21 TIF> >0x0D TIF> >0x21 TIF> >0x0D TIF> >0x21 TIF> >0x0D TIF> >0x21 TIF> >0x0D TIF> >0x21 TIF> >0x0D TIF> >0x21 TIF> >0x0D TIF> >0x21 TIF> >0x0D TIF> >0x21 TIF> >0x0D TIF> >0x21 TIF> >0x0D TIF> >0x21 TIF> >0x0D TIF> >0x21 TIF> >0x0D TIF> >0x21 TIF> >0x0D TIF> >0x21 TIF> >0x0D TIF> >0x21 TIF> >0x0D TIF> >0x21 TIF> >0x0D TIF> >0x21 TIF> >0x0D TIF> >0x21 TIF> >0x0D TIF> >0x21 TIF> >0x0D TIF>
 >0x21 TIF> >0x0D TIF> >0x21 TIF> >0x0D TIF> >0x21 TIF> >0x0D TIF> >0x21 TIF> >0x0D TIF> >0x21 TIF> >0x0D TIF> >0x21 TIF> >0x0D TIF> >0x21 TIF> >0x0D TIF> >0x21 TIF> >0x0D TIF> >0x21 TIF> >0x0D TIF> >0x21 TIF> >0x0D TIF> >0x21 TIF> >0x0D TIF> >0x21 TIF> >0x0D TIF> >0x21 TIF> >0x0D TIF> >0x21 TIF> >0x0D TIF> >0x21 TIF> >0x0D TIF> >0x21 TIF> >0x0D TIF> >0x21 TIF> >0x0D TIF> >0x21 TIF> >0x0D TIF> >0x21 TIF> >0x0D TIF> >0x21 TIF> >0x0D TIF> >0x21 TIF> >0x0D TIF> >0x21 TIF> >0x0D TIF> >0x21 TIF> >0x0D TIF>
 >0x21 TIF> >0x0D TIF> >0x21 TIF> >0x0D TIF> >0x21 TIF> >0x0D TIF> >0x21 TIF> >0x0D TIF> >0x21 TIF> >0x0D TIF> >0x21 TIF> >0x0D TIF> >0x21 TIF> >0x0D TIF> >0x21 TIF> >0x0D TIF> >0x21 TIF> >0x0D TIF> >0x21 TIF> >0x0D TIF> >0x21 TIF> >0x0D TIF> >0x21 TIF> >0x0D TIF> >0x21 TIF> >0x0D TIF> >0x21 TIF> >0x0D TIF> >0x21 TIF> >0x0D TIF> >0x21 TIF> >0x0D TIF> >0x21 TIF> >0x0D TIF> >0x21 TIF> >0x0D TIF> >0x21 TIF> >0x0D TIF> >0x21 TIF> >0x0D TIF> >0x21 TIF> >0x0D TIF> >0x21 TIF> >0x0D TIF> >0x21 TIF> >0x0D TIF>
 >0x21 TIF> >0x0D TIF> >0x21 TIF> >0x0D TIF> >0x21 TIF> >0x0D TIF> >0x21 TIF> >0x0D TIF> >0x21 TIF> >0x0D TIF> >0x21 TIF> >0x0D TIF> >0x21 TIF> >0x0D TIF> >0x21 TIF> >0x0D TIF> >0x21 TIF> >0x0D TIF> >0x21 TIF> >0x0D TIF> >0x21 TIF> >0x0D TIF> >0x21 TIF> >0x0D TIF> >0x21 TIF> >0x0D TIF> >0x21 TIF> >0x0D TIF> >0x21 TIF> >0x0D TIF> >0x21 TIF> >0x0D TIF> >0x21 TIF> >0x0D TIF> >0x21 TIF> >0x0D TIF> >0x21 TIF> >0x0D TIF> >0x21 TIF> >0x0D TIF> >0x21 TIF> >0x0D TIF> >0x21 TIF> >0x0D TIF> >0x21 TIF> >0x0D TIF>
 >0x21 TIF> >0x0D TIF> >0x21 TIF> >0x0D TIF> >0x21 TIF> >0x0D TIF> >0x21 TIF> >0x0D TIF> >0x21 TIF> >0x0D TIF> >0x21 TIF> >0x0D TIF> >0x21 TIF> >0x0D TIF> >0x21 TIF> >0x0D TIF> >0x21 TIF> >0x0D TIF> >0x21 TIF> >0x0D TIF> >0x21 TIF> >0x0D TIF> >0x21 TIF> >0x0D TIF> >0x21 TIF> >0x0D TIF> >0x21 TIF> >0x0D TIF> >0x21 TIF> >0x0D TIF> >0x21 TIF> >0x0D TIF> >0x21 TIF> >0x0D TIF> >0x21 TIF> >0x0D TIF> >0x21 TIF> >0x0D TIF> >0x21 TIF> >0x0D TIF> >0x21 TIF> >0x0D TIF> >0x21 TIF> >0x0D TIF> >0x21 TIF> >0x0D TIF>
 >0x21 TIF> >0x0D TIF> >0x21 TIF> >0x0D TIF> >0x21 TIF> >0x0D TIF> >0x21 TIF> >0x0D TIF> >0x21 TIF> >0x0D TIF> >0x21 TIF> >0x0D TIF> >0x21 TIF> >0x0D TIF> >0x21 TIF> >0x0D TIF> >0x21 TIF> >0x0D TIF> >0x21 TIF> >0x0D TIF> >0x21 TIF> >0x0D TIF> >0x21 TIF> >0x0D TIF> >0x21 TIF> >0x0D TIF> >0x21 TIF> >0x0D TIF> >0x21 TIF> >0x0D TIF> >0x21 TIF> >0x0D TIF> >0x21 TIF> >0x0D TIF> >0x21 TIF> >0x0D TIF> >0x21 TIF> >0x0D TIF> >0x21 TIF> >0x0D TIF> >0x21 TIF> >0x0D TIF> >0x21 TIF> >0x0D TIF> >0x21 TIF> >0x0D TIF>
 >0x21 TIF> >0x0D TIF> >0x21 TIF> >0x0D TIF> >0x21 TIF> >0x0D TIF> >0x21 TIF> >0x0D TIF> >0x21 TIF> >0x0D TIF> >0x21 TIF> >0x0D TIF> >0x21 TIF> >0x0D TIF> >0x21 TIF> >0x0D TIF> >0x21 TIF> >0x0D TIF> >0x21 TIF> >0x0D TIF> >0x21 TIF> >0x0D TIF> >0x21 TIF> >0x0D TIF> >0x21 TIF> >0x0D TIF> >0x21 TIF> >0x0D TIF> >0x21 TIF> >0x0D TIF> >0x21 TIF> >0x0D TIF> >0x21 TIF> >0x0D TIF> >0x21 TIF> >0x0D TIF> >0x21 TIF> >0x0D TIF> >0x21 TIF> >0x0D TIF> >0x21 TIF> >0x0D TIF> >0x21 TIF> >0x0D TIF> >0x21 TIF> >0x0D TIF>
 >0x21 TIF> >0x0D TIF> >0x21 TIF> >0x0D TIF> >0x21 TIF> >0x0D TIF> >0x21 TIF> >0x0D TIF> >0x21 TIF> >0x0D TIF> >0x21 TIF> >0x0D TIF> >0x21 TIF> >0x0D TIF> >0x21 TIF>STM32F0xxx: Can not connect to CPU. Trying connect under reset. >0x108 TIF>Found SWD-DP with ID 0x0BB11477 >0x0D TIF> >0x28 TIF> >0x0D TIF> >0x28 TIF> >0x0D TIF> >0x21 TIF> >0x0D TIF> >0x28 TIF> >0x0D TIF> >0x28 TIF> >0x0D TIF> >0x28 TIF> >0x0D TIF> >0x21 TIF> >0x0D TIF> >0x21 TIF> >0x0D TIF> >0x28 TIF> >0x0D TIF> >0x21 TIF> >0x0D TIF>
 >0x21 TIF> >0x0D TIF> >0x28 TIF> >0x0D TIF> >0x28 TIF> >0x0D TIF> >0x28 TIF> >0x0D TIF> >0x21 TIF> >0x0D TIF> >0x21 TIF> >0x0D TIF> >0x28 TIF> >0x0D TIF> >0x28 TIF> >0x0D TIF> >0x28 TIF> >0x0D TIF> >0x21 TIF> >0x0D TIF> >0x21 TIF> >0x0D TIF> >0x28 TIF> >0x0D TIF> >0x21 TIF> >0x0D TIF> >0x21 TIF> >0x0D TIF> >0x28 TIF> >0x0D TIF> >0x28 TIF> >0x0D TIF> >0x28 TIF> >0x0D TIF> >0x28 TIF> >0x108 TIF>Found SWD-DP with ID 0x0BB11477 >0x0D TIF> >0x21 TIF> >0x0D TIF> >0x28 TIF> >0x0D TIF> >0x28 TIF> >0x0D TIF>
 >0x21 TIF> >0x0D TIF> >0x28 TIF> >0x0D TIF> >0x21 TIF> >0x0D TIF> >0x21 TIF> >0x0D TIF> >0x21 TIF> >0x0D TIF> >0x28 TIF> >0x0D TIF> >0x21 TIF> >0x0D TIF> >0x28 TIF> >0x0D TIF> >0x28 TIF> >0x0D TIF> >0x21 TIF> >0x0D TIF> >0x28 TIF> >0x0D TIF> >0x28 TIF> >0x0D TIF> >0x28 TIF> >0x0D TIF> >0x21 TIF> >0x0D TIF> >0x21 TIF> >0x0D TIF> >0x28 TIF> >0x0D TIF> >0x21 TIF> >0x0D TIF> >0x21 TIF>Found Cortex-M0 r0p0, Little endian. >0x0D TIF> >0x28 TIF> -- CPU_WriteMem(4 bytes @ 0xE0002000)
 -- CPU_ReadMem(4 bytes @ 0xE000EDF0) -- CPU_ReadMem(4 bytes @ 0xE0002000)FPUnit: 4 code (BP) slots and 0 literal slots -- CPU_ReadMem(4 bytes @ 0xE000EDFC) -- CPU_ReadMem(4 bytes @ 0xE0001000) -- CPU_WriteMem(4 bytes @ 0xE0001000) -- CPU_ReadMem(4 bytes @ 0xE00FF018) -- CPU_WriteMem(4096 bytes @ 0x20000000) >0x0D TIF> >0x21 TIF>  returns 0x0BB11477 (0419ms, 1017ms total)
T2B68 001:435 JLINK_GetDLLVersion()  returns 49000 (0000ms, 1017ms total)
T2B68 001:435 JLINK_CORE_GetFound()  returns 0x60000FF (0001ms, 1018ms total)
T2B68 001:445 JLINK_GetDebugInfo(0x100) -- Value=0xE00FF003  returns 0x00 (0000ms, 1018ms total)
T2B68 001:445 JLINK_GetDebugInfo(0x101)  returns 0xFFFFFFFF (0000ms, 1018ms total)
T2B68 001:445 JLINK_ReadMem (0xE0041FF0, 0x0010 Bytes, ...) -- CPU_ReadMem(16 bytes @ 0xE0041FF0) - Data: 00 00 00 00 00 00 00 00 00 00 00 00 00 00 00 00  returns 0x00 (0000ms, 1018ms total)
T2B68 001:445 JLINK_GetDebugInfo(0x102)  returns 0xFFFFFFFF (0000ms, 1018ms total)
T2B68 001:445 JLINK_GetDebugInfo(0x103)  returns 0xFFFFFFFF (0000ms, 1018ms total)
T2B68 001:445 JLINK_ReadMem (0xE0040FF0, 0x0010 Bytes, ...) -- CPU_ReadMem(16 bytes @ 0xE0040FF0) - Data: 00 00 00 00 00 00 00 00 00 00 00 00 00 00 00 00  returns 0x00 (0001ms, 1019ms total)
T2B68 001:446 JLINK_GetDebugInfo(0x104)  returns 0xFFFFFFFF (0000ms, 1019ms total)
T2B68 001:446 JLINK_GetDebugInfo(0x105)  returns 0xFFFFFFFF (0000ms, 1019ms total)
T2B68 001:446 JLINK_GetDebugInfo(0x106)  returns 0xFFFFFFFF (0000ms, 1019ms total)
T2B68 001:446 JLINK_GetDebugInfo(0x107)  returns 0xFFFFFFFF (0000ms, 1019ms total)
T2B68 001:446 JLINK_GetDebugInfo(0x10C)  returns 0xFFFFFFFF (0000ms, 1019ms total)
T2B68 001:446 JLINK_ReadMemU32(0xE000ED00, 0x0001 Items, ...) -- CPU_ReadMem(4 bytes @ 0xE000ED00) - Data: 00 C2 0C 41  returns 0x01 (0001ms, 1020ms total)
T2B68 001:447 JLINK_SetResetType(JLINKARM_RESET_TYPE_NORMAL)  returns JLINKARM_RESET_TYPE_NORMAL (0000ms, 1020ms total)
T2B68 001:447 JLINK_Reset() -- CPU_ReadMem(4 bytes @ 0x20000000) -- CPU_WriteMem(4 bytes @ 0x20000000) -- CPU_WriteMem(4 bytes @ 0xE0002000) -- CPU_ReadMem(4 bytes @ 0xE000EDFC) -- CPU_WriteMem(4 bytes @ 0xE000EDFC) -- CPU_ReadMem(4 bytes @ 0xE0001000) -- CPU_WriteMem(4 bytes @ 0xE0001000) (0014ms, 1034ms total)
T2B68 001:461 JLINK_Halt()  returns 0x00 (0000ms, 1034ms total)
T2B68 001:461 JLINK_IsHalted()  returns TRUE (0000ms, 1034ms total)
T2B68 001:461 JLINK_ReadMemU32(0xE000EDF0, 0x0001 Items, ...) -- CPU_ReadMem(4 bytes @ 0xE000EDF0) - Data: 03 00 03 00  returns 0x01 (0000ms, 1034ms total)
T2B68 001:461 JLINK_WriteU32(0xE000EDF0, 0xA05F0003) -- CPU_WriteMem(4 bytes @ 0xE000EDF0)  returns 0x00 (0001ms, 1035ms total)
T2B68 001:462 JLINK_WriteU32(0xE000EDFC, 0x01000000) -- CPU_WriteMem(4 bytes @ 0xE000EDFC)  returns 0x00 (0001ms, 1036ms total)
T2B68 001:492 JLINK_GetHWStatus(...)  returns 0x00 (0000ms, 1036ms total)
T2B68 001:515 JLINK_GetNumBPUnits(Type = 0xFFFFFF00)  returns 0x04 (0000ms, 1036ms total)
T2B68 001:515 JLINK_GetNumBPUnits(Type = 0xF0)  returns 0x2000 (0000ms, 1036ms total)
T2B68 001:515 JLINK_GetNumWPUnits()  returns 0x02 (0000ms, 1036ms total)
T2B68 001:533 JLINK_GetSpeed()  returns 0xFA0 (0000ms, 1036ms total)
T2B68 001:545 JLINK_ReadMemU32(0xE000E004, 0x0001 Items, ...) -- CPU_ReadMem(4 bytes @ 0xE000E004) - Data: 00 00 00 00  returns 0x01 (0001ms, 1037ms total)
T2B68 001:546 JLINK_Halt()  returns 0x00 (0000ms, 1037ms total)
T2B68 001:546 JLINK_IsHalted()  returns TRUE (0000ms, 1037ms total)
T2B68 001:552 JLINK_WriteMem(0x20000000, 0x0170 Bytes, ...) - Data: 00 BE 0A E0 0D 78 2D 06 68 40 08 24 40 00 00 D3 ... -- CPU_WriteMem(368 bytes @ 0x20000000)  returns 0x170 (0003ms, 1040ms total)
T2B68 001:555 JLINK_WriteReg(R0, 0x08000000)  returns 0x00 (0000ms, 1040ms total)
T2B68 001:555 JLINK_WriteReg(R1, 0x00B71B00)  returns 0x00 (0000ms, 1040ms total)
T2B68 001:555 JLINK_WriteReg(R2, 0x00000001)  returns 0x00 (0000ms, 1040ms total)
T2B68 001:555 JLINK_WriteReg(R3, 0x00000000)  returns 0x00 (0000ms, 1040ms total)
T2B68 001:555 JLINK_WriteReg(R4, 0x00000000)  returns 0x00 (0000ms, 1040ms total)
T2B68 001:555 JLINK_WriteReg(R5, 0x00000000)  returns 0x00 (0000ms, 1040ms total)
T2B68 001:555 JLINK_WriteReg(R6, 0x00000000)  returns 0x00 (0000ms, 1040ms total)
T2B68 001:555 JLINK_WriteReg(R7, 0x00000000)  returns 0x00 (0000ms, 1040ms total)
T2B68 001:555 JLINK_WriteReg(R8, 0x00000000)  returns 0x00 (0000ms, 1040ms total)
T2B68 001:555 JLINK_WriteReg(R9, 0x2000016C)  returns 0x00 (0000ms, 1040ms total)
T2B68 001:555 JLINK_WriteReg(R10, 0x00000000)  returns 0x00 (0000ms, 1040ms total)
T2B68 001:555 JLINK_WriteReg(R11, 0x00000000)  returns 0x00 (0000ms, 1040ms total)
T2B68 001:555 JLINK_WriteReg(R12, 0x00000000)  returns 0x00 (0000ms, 1040ms total)
T2B68 001:555 JLINK_WriteReg(R13 (SP), 0x20001000)  returns 0x00 (0000ms, 1040ms total)
T2B68 001:555 JLINK_WriteReg(R14, 0x20000001)  returns 0x00 (0000ms, 1040ms total)
T2B68 001:555 JLINK_WriteReg(R15 (PC), 0x20000038)  returns 0x00 (0000ms, 1040ms total)
T2B68 001:555 JLINK_WriteReg(XPSR, 0x01000000)  returns 0x00 (0000ms, 1040ms total)
T2B68 001:555 JLINK_WriteReg(MSP, 0x20001000)  returns 0x00 (0000ms, 1040ms total)
T2B68 001:555 JLINK_WriteReg(PSP, 0x20001000)  returns 0x00 (0000ms, 1040ms total)
T2B68 001:555 JLINK_WriteReg(CFBP, 0x00000000)  returns 0x00 (0000ms, 1040ms total)
T2B68 001:555 JLINK_SetBPEx(Addr = 0x20000000, Type = 0xFFFFFFF2) -- CPU_ReadMem(2 bytes @ 0x20000000)  returns 0x00000001 (0001ms, 1041ms total)
T2B68 001:556 JLINK_Go() -- CPU_WriteMem(2 bytes @ 0x20000000) -- CPU_WriteMem(4 bytes @ 0xE0002008) -- CPU_WriteMem(4 bytes @ 0xE000200C) -- CPU_WriteMem(4 bytes @ 0xE0002010) -- CPU_WriteMem(4 bytes @ 0xE0002014) -- CPU_WriteMem(4 bytes @ 0xE0001004) (0006ms, 1047ms total)
T2B68 001:562 JLINK_IsHalted() -- CPU_ReadMem(2 bytes @ 0x20000000)  returns TRUE (0003ms, 1050ms total)
T2B68 001:565 JLINK_ReadReg(R15 (PC))  returns 0x20000000 (0000ms, 1047ms total)
T2B68 001:565 JLINK_ClrBPEx(BPHandle = 0x00000001)  returns 0x00 (0000ms, 1047ms total)
T2B68 001:565 JLINK_ReadReg(R0)  returns 0x00000000 (0000ms, 1047ms total)
T2B68 001:565 JLINK_WriteReg(R0, 0x08000000)  returns 0x00 (0000ms, 1047ms total)
T2B68 001:566 JLINK_WriteReg(R1, 0x00000400)  returns 0x00 (0000ms, 1047ms total)
T2B68 001:566 JLINK_WriteReg(R2, 0x000000FF)  returns 0x00 (0000ms, 1047ms total)
T2B68 001:566 JLINK_WriteReg(R3, 0x00000000)  returns 0x00 (0000ms, 1047ms total)
T2B68 001:566 JLINK_WriteReg(R4, 0x00000000)  returns 0x00 (0000ms, 1047ms total)
T2B68 001:566 JLINK_WriteReg(R5, 0x00000000)  returns 0x00 (0000ms, 1047ms total)
T2B68 001:566 JLINK_WriteReg(R6, 0x00000000)  returns 0x00 (0000ms, 1047ms total)
T2B68 001:566 JLINK_WriteReg(R7, 0x00000000)  returns 0x00 (0000ms, 1047ms total)
T2B68 001:566 JLINK_WriteReg(R8, 0x00000000)  returns 0x00 (0000ms, 1047ms total)
T2B68 001:566 JLINK_WriteReg(R9, 0x2000016C)  returns 0x00 (0000ms, 1047ms total)
T2B68 001:566 JLINK_WriteReg(R10, 0x00000000)  returns 0x00 (0000ms, 1047ms total)
T2B68 001:566 JLINK_WriteReg(R11, 0x00000000)  returns 0x00 (0000ms, 1047ms total)
T2B68 001:566 JLINK_WriteReg(R12, 0x00000000)  returns 0x00 (0000ms, 1047ms total)
T2B68 001:566 JLINK_WriteReg(R13 (SP), 0x20001000)  returns 0x00 (0000ms, 1047ms total)
T2B68 001:566 JLINK_WriteReg(R14, 0x20000001)  returns 0x00 (0000ms, 1047ms total)
T2B68 001:566 JLINK_WriteReg(R15 (PC), 0x20000020)  returns 0x00 (0000ms, 1047ms total)
T2B68 001:566 JLINK_WriteReg(XPSR, 0x01000000)  returns 0x00 (0000ms, 1047ms total)
T2B68 001:566 JLINK_WriteReg(MSP, 0x20001000)  returns 0x00 (0000ms, 1047ms total)
T2B68 001:566 JLINK_WriteReg(PSP, 0x20001000)  returns 0x00 (0000ms, 1047ms total)
T2B68 001:566 JLINK_WriteReg(CFBP, 0x00000000)  returns 0x00 (0000ms, 1047ms total)
T2B68 001:566 JLINK_SetBPEx(Addr = 0x20000000, Type = 0xFFFFFFF2)  returns 0x00000002 (0000ms, 1047ms total)
T2B68 001:566 JLINK_Go() (0002ms, 1049ms total)
T2B68 001:568 JLINK_IsHalted() -- CPU_ReadMem(2 bytes @ 0x20000000)  returns TRUE (0003ms, 1052ms total)
T2B68 001:571 JLINK_ReadReg(R15 (PC))  returns 0x20000000 (0000ms, 1049ms total)
T2B68 001:571 JLINK_ClrBPEx(BPHandle = 0x00000002)  returns 0x00 (0000ms, 1049ms total)
T2B68 001:571 JLINK_ReadReg(R0)  returns 0x00000001 (0000ms, 1049ms total)
T2B68 001:571 JLINK_WriteReg(R0, 0x08000000)  returns 0x00 (0000ms, 1049ms total)
T2B68 001:571 JLINK_WriteReg(R1, 0x00000400)  returns 0x00 (0000ms, 1049ms total)
T2B68 001:571 JLINK_WriteReg(R2, 0x000000FF)  returns 0x00 (0000ms, 1049ms total)
T2B68 001:571 JLINK_WriteReg(R3, 0x00000000)  returns 0x00 (0000ms, 1049ms total)
T2B68 001:571 JLINK_WriteReg(R4, 0x00000000)  returns 0x00 (0000ms, 1049ms total)
T2B68 001:571 JLINK_WriteReg(R5, 0x00000000)  returns 0x00 (0000ms, 1049ms total)
T2B68 001:571 JLINK_WriteReg(R6, 0x00000000)  returns 0x00 (0000ms, 1049ms total)
T2B68 001:571 JLINK_WriteReg(R7, 0x00000000)  returns 0x00 (0000ms, 1049ms total)
T2B68 001:571 JLINK_WriteReg(R8, 0x00000000)  returns 0x00 (0000ms, 1049ms total)
T2B68 001:571 JLINK_WriteReg(R9, 0x2000016C)  returns 0x00 (0000ms, 1049ms total)
T2B68 001:571 JLINK_WriteReg(R10, 0x00000000)  returns 0x00 (0000ms, 1049ms total)
T2B68 001:571 JLINK_WriteReg(R11, 0x00000000)  returns 0x00 (0000ms, 1049ms total)
T2B68 001:571 JLINK_WriteReg(R12, 0x00000000)  returns 0x00 (0000ms, 1049ms total)
T2B68 001:571 JLINK_WriteReg(R13 (SP), 0x20001000)  returns 0x00 (0000ms, 1049ms total)
T2B68 001:571 JLINK_WriteReg(R14, 0x20000001)  returns 0x00 (0000ms, 1049ms total)
T2B68 001:571 JLINK_WriteReg(R15 (PC), 0x200000B8)  returns 0x00 (0000ms, 1049ms total)
T2B68 001:571 JLINK_WriteReg(XPSR, 0x01000000)  returns 0x00 (0000ms, 1049ms total)
T2B68 001:571 JLINK_WriteReg(MSP, 0x20001000)  returns 0x00 (0000ms, 1049ms total)
T2B68 001:571 JLINK_WriteReg(PSP, 0x20001000)  returns 0x00 (0000ms, 1049ms total)
T2B68 001:571 JLINK_WriteReg(CFBP, 0x00000000)  returns 0x00 (0000ms, 1049ms total)
T2B68 001:571 JLINK_SetBPEx(Addr = 0x20000000, Type = 0xFFFFFFF2)  returns 0x00000003 (0001ms, 1050ms total)
T2B68 001:572 JLINK_Go() (0001ms, 1051ms total)
T2B68 001:573 JLINK_IsHalted()  returns FALSE (0000ms, 1051ms total)
T2B68 001:709 JLINK_IsHalted() -- CPU_ReadMem(2 bytes @ 0x20000000)  returns TRUE (0003ms, 1054ms total)
T2B68 001:712 JLINK_ReadReg(R15 (PC))  returns 0x20000000 (0000ms, 1051ms total)
T2B68 001:712 JLINK_ClrBPEx(BPHandle = 0x00000003)  returns 0x00 (0000ms, 1051ms total)
T2B68 001:712 JLINK_ReadReg(R0)  returns 0x00000000 (0000ms, 1051ms total)
T2B68 001:713 JLINK_WriteReg(R0, 0x08000400)  returns 0x00 (0000ms, 1051ms total)
T2B68 001:713 JLINK_WriteReg(R1, 0x00000400)  returns 0x00 (0001ms, 1052ms total)
T2B68 001:714 JLINK_WriteReg(R2, 0x000000FF)  returns 0x00 (0000ms, 1052ms total)
T2B68 001:714 JLINK_WriteReg(R3, 0x00000000)  returns 0x00 (0000ms, 1052ms total)
T2B68 001:714 JLINK_WriteReg(R4, 0x00000000)  returns 0x00 (0000ms, 1052ms total)
T2B68 001:714 JLINK_WriteReg(R5, 0x00000000)  returns 0x00 (0000ms, 1052ms total)
T2B68 001:714 JLINK_WriteReg(R6, 0x00000000)  returns 0x00 (0000ms, 1052ms total)
T2B68 001:714 JLINK_WriteReg(R7, 0x00000000)  returns 0x00 (0000ms, 1052ms total)
T2B68 001:714 JLINK_WriteReg(R8, 0x00000000)  returns 0x00 (0000ms, 1052ms total)
T2B68 001:714 JLINK_WriteReg(R9, 0x2000016C)  returns 0x00 (0000ms, 1052ms total)
T2B68 001:714 JLINK_WriteReg(R10, 0x00000000)  returns 0x00 (0000ms, 1052ms total)
T2B68 001:714 JLINK_WriteReg(R11, 0x00000000)  returns 0x00 (0000ms, 1052ms total)
T2B68 001:714 JLINK_WriteReg(R12, 0x00000000)  returns 0x00 (0000ms, 1052ms total)
T2B68 001:714 JLINK_WriteReg(R13 (SP), 0x20001000)  returns 0x00 (0000ms, 1052ms total)
T2B68 001:714 JLINK_WriteReg(R14, 0x20000001)  returns 0x00 (0000ms, 1052ms total)
T2B68 001:714 JLINK_WriteReg(R15 (PC), 0x20000020)  returns 0x00 (0000ms, 1052ms total)
T2B68 001:714 JLINK_WriteReg(XPSR, 0x01000000)  returns 0x00 (0000ms, 1052ms total)
T2B68 001:714 JLINK_WriteReg(MSP, 0x20001000)  returns 0x00 (0000ms, 1052ms total)
T2B68 001:714 JLINK_WriteReg(PSP, 0x20001000)  returns 0x00 (0000ms, 1052ms total)
T2B68 001:714 JLINK_WriteReg(CFBP, 0x00000000)  returns 0x00 (0000ms, 1052ms total)
T2B68 001:714 JLINK_SetBPEx(Addr = 0x20000000, Type = 0xFFFFFFF2)  returns 0x00000004 (0000ms, 1052ms total)
T2B68 001:714 JLINK_Go() (0002ms, 1054ms total)
T2B68 001:716 JLINK_IsHalted() -- CPU_ReadMem(2 bytes @ 0x20000000)  returns TRUE (0003ms, 1057ms total)
T2B68 001:719 JLINK_ReadReg(R15 (PC))  returns 0x20000000 (0000ms, 1054ms total)
T2B68 001:719 JLINK_ClrBPEx(BPHandle = 0x00000004)  returns 0x00 (0000ms, 1054ms total)
T2B68 001:719 JLINK_ReadReg(R0)  returns 0x00000001 (0000ms, 1054ms total)
T2B68 001:719 JLINK_WriteReg(R0, 0x08000400)  returns 0x00 (0000ms, 1054ms total)
T2B68 001:719 JLINK_WriteReg(R1, 0x00000400)  returns 0x00 (0000ms, 1054ms total)
T2B68 001:719 JLINK_WriteReg(R2, 0x000000FF)  returns 0x00 (0000ms, 1054ms total)
T2B68 001:719 JLINK_WriteReg(R3, 0x00000000)  returns 0x00 (0000ms, 1054ms total)
T2B68 001:719 JLINK_WriteReg(R4, 0x00000000)  returns 0x00 (0000ms, 1054ms total)
T2B68 001:719 JLINK_WriteReg(R5, 0x00000000)  returns 0x00 (0000ms, 1054ms total)
T2B68 001:719 JLINK_WriteReg(R6, 0x00000000)  returns 0x00 (0000ms, 1054ms total)
T2B68 001:719 JLINK_WriteReg(R7, 0x00000000)  returns 0x00 (0000ms, 1054ms total)
T2B68 001:719 JLINK_WriteReg(R8, 0x00000000)  returns 0x00 (0000ms, 1054ms total)
T2B68 001:719 JLINK_WriteReg(R9, 0x2000016C)  returns 0x00 (0000ms, 1054ms total)
T2B68 001:719 JLINK_WriteReg(R10, 0x00000000)  returns 0x00 (0000ms, 1054ms total)
T2B68 001:719 JLINK_WriteReg(R11, 0x00000000)  returns 0x00 (0000ms, 1054ms total)
T2B68 001:719 JLINK_WriteReg(R12, 0x00000000)  returns 0x00 (0000ms, 1054ms total)
T2B68 001:719 JLINK_WriteReg(R13 (SP), 0x20001000)  returns 0x00 (0000ms, 1054ms total)
T2B68 001:719 JLINK_WriteReg(R14, 0x20000001)  returns 0x00 (0000ms, 1054ms total)
T2B68 001:719 JLINK_WriteReg(R15 (PC), 0x200000B8)  returns 0x00 (0000ms, 1054ms total)
T2B68 001:719 JLINK_WriteReg(XPSR, 0x01000000)  returns 0x00 (0000ms, 1054ms total)
T2B68 001:719 JLINK_WriteReg(MSP, 0x20001000)  returns 0x00 (0001ms, 1055ms total)
T2B68 001:720 JLINK_WriteReg(PSP, 0x20001000)  returns 0x00 (0000ms, 1055ms total)
T2B68 001:720 JLINK_WriteReg(CFBP, 0x00000000)  returns 0x00 (0000ms, 1055ms total)
T2B68 001:720 JLINK_SetBPEx(Addr = 0x20000000, Type = 0xFFFFFFF2)  returns 0x00000005 (0000ms, 1055ms total)
T2B68 001:720 JLINK_Go() (0001ms, 1056ms total)
T2B68 001:721 JLINK_IsHalted()  returns FALSE (0001ms, 1057ms total)
T2B68 001:728 JLINK_IsHalted()  returns FALSE (0001ms, 1057ms total)
T2B68 001:730 JLINK_IsHalted()  returns FALSE (0001ms, 1057ms total)
T2B68 001:732 JLINK_IsHalted()  returns FALSE (0001ms, 1057ms total)
T2B68 001:740 JLINK_IsHalted()  returns FALSE (0000ms, 1056ms total)
T2B68 001:744 JLINK_IsHalted() -- CPU_ReadMem(2 bytes @ 0x20000000)  returns TRUE (0003ms, 1059ms total)
T2B68 001:747 JLINK_ReadReg(R15 (PC))  returns 0x20000000 (0000ms, 1056ms total)
T2B68 001:747 JLINK_ClrBPEx(BPHandle = 0x00000005)  returns 0x00 (0000ms, 1056ms total)
T2B68 001:747 JLINK_ReadReg(R0)  returns 0x00000000 (0000ms, 1056ms total)
T2B68 001:749 JLINK_WriteReg(R0, 0x08000800)  returns 0x00 (0000ms, 1056ms total)
T2B68 001:749 JLINK_WriteReg(R1, 0x00000400)  returns 0x00 (0000ms, 1056ms total)
T2B68 001:749 JLINK_WriteReg(R2, 0x000000FF)  returns 0x00 (0000ms, 1056ms total)
T2B68 001:749 JLINK_WriteReg(R3, 0x00000000)  returns 0x00 (0000ms, 1056ms total)
T2B68 001:749 JLINK_WriteReg(R4, 0x00000000)  returns 0x00 (0000ms, 1056ms total)
T2B68 001:749 JLINK_WriteReg(R5, 0x00000000)  returns 0x00 (0000ms, 1056ms total)
T2B68 001:749 JLINK_WriteReg(R6, 0x00000000)  returns 0x00 (0000ms, 1056ms total)
T2B68 001:749 JLINK_WriteReg(R7, 0x00000000)  returns 0x00 (0000ms, 1056ms total)
T2B68 001:749 JLINK_WriteReg(R8, 0x00000000)  returns 0x00 (0000ms, 1056ms total)
T2B68 001:749 JLINK_WriteReg(R9, 0x2000016C)  returns 0x00 (0000ms, 1056ms total)
T2B68 001:749 JLINK_WriteReg(R10, 0x00000000)  returns 0x00 (0000ms, 1056ms total)
T2B68 001:749 JLINK_WriteReg(R11, 0x00000000)  returns 0x00 (0000ms, 1056ms total)
T2B68 001:749 JLINK_WriteReg(R12, 0x00000000)  returns 0x00 (0000ms, 1056ms total)
T2B68 001:749 JLINK_WriteReg(R13 (SP), 0x20001000)  returns 0x00 (0000ms, 1056ms total)
T2B68 001:749 JLINK_WriteReg(R14, 0x20000001)  returns 0x00 (0000ms, 1056ms total)
T2B68 001:750 JLINK_WriteReg(R15 (PC), 0x20000020)  returns 0x00 (0000ms, 1057ms total)
T2B68 001:750 JLINK_WriteReg(XPSR, 0x01000000)  returns 0x00 (0000ms, 1057ms total)
T2B68 001:750 JLINK_WriteReg(MSP, 0x20001000)  returns 0x00 (0000ms, 1057ms total)
T2B68 001:750 JLINK_WriteReg(PSP, 0x20001000)  returns 0x00 (0000ms, 1057ms total)
T2B68 001:750 JLINK_WriteReg(CFBP, 0x00000000)  returns 0x00 (0000ms, 1057ms total)
T2B68 001:750 JLINK_SetBPEx(Addr = 0x20000000, Type = 0xFFFFFFF2)  returns 0x00000006 (0000ms, 1057ms total)
T2B68 001:750 JLINK_Go() (0001ms, 1058ms total)
T2B68 001:751 JLINK_IsHalted() -- CPU_ReadMem(2 bytes @ 0x20000000)  returns TRUE (0003ms, 1061ms total)
T2B68 001:754 JLINK_ReadReg(R15 (PC))  returns 0x20000000 (0001ms, 1059ms total)
T2B68 001:755 JLINK_ClrBPEx(BPHandle = 0x00000006)  returns 0x00 (0000ms, 1059ms total)
T2B68 001:755 JLINK_ReadReg(R0)  returns 0x00000001 (0000ms, 1059ms total)
T2B68 001:755 JLINK_WriteReg(R0, 0x08000800)  returns 0x00 (0000ms, 1059ms total)
T2B68 001:755 JLINK_WriteReg(R1, 0x00000400)  returns 0x00 (0000ms, 1059ms total)
T2B68 001:755 JLINK_WriteReg(R2, 0x000000FF)  returns 0x00 (0000ms, 1059ms total)
T2B68 001:755 JLINK_WriteReg(R3, 0x00000000)  returns 0x00 (0000ms, 1059ms total)
T2B68 001:755 JLINK_WriteReg(R4, 0x00000000)  returns 0x00 (0000ms, 1059ms total)
T2B68 001:755 JLINK_WriteReg(R5, 0x00000000)  returns 0x00 (0000ms, 1059ms total)
T2B68 001:755 JLINK_WriteReg(R6, 0x00000000)  returns 0x00 (0000ms, 1059ms total)
T2B68 001:755 JLINK_WriteReg(R7, 0x00000000)  returns 0x00 (0000ms, 1059ms total)
T2B68 001:755 JLINK_WriteReg(R8, 0x00000000)  returns 0x00 (0000ms, 1059ms total)
T2B68 001:755 JLINK_WriteReg(R9, 0x2000016C)  returns 0x00 (0000ms, 1059ms total)
T2B68 001:755 JLINK_WriteReg(R10, 0x00000000)  returns 0x00 (0000ms, 1059ms total)
T2B68 001:755 JLINK_WriteReg(R11, 0x00000000)  returns 0x00 (0000ms, 1059ms total)
T2B68 001:755 JLINK_WriteReg(R12, 0x00000000)  returns 0x00 (0000ms, 1059ms total)
T2B68 001:755 JLINK_WriteReg(R13 (SP), 0x20001000)  returns 0x00 (0000ms, 1059ms total)
T2B68 001:755 JLINK_WriteReg(R14, 0x20000001)  returns 0x00 (0000ms, 1059ms total)
T2B68 001:755 JLINK_WriteReg(R15 (PC), 0x200000B8)  returns 0x00 (0000ms, 1059ms total)
T2B68 001:755 JLINK_WriteReg(XPSR, 0x01000000)  returns 0x00 (0000ms, 1059ms total)
T2B68 001:755 JLINK_WriteReg(MSP, 0x20001000)  returns 0x00 (0000ms, 1059ms total)
T2B68 001:755 JLINK_WriteReg(PSP, 0x20001000)  returns 0x00 (0000ms, 1059ms total)
T2B68 001:755 JLINK_WriteReg(CFBP, 0x00000000)  returns 0x00 (0000ms, 1059ms total)
T2B68 001:755 JLINK_SetBPEx(Addr = 0x20000000, Type = 0xFFFFFFF2)  returns 0x00000007 (0000ms, 1059ms total)
T2B68 001:755 JLINK_Go() (0002ms, 1061ms total)
T2B68 001:757 JLINK_IsHalted()  returns FALSE (0000ms, 1061ms total)
T2B68 001:759 JLINK_IsHalted()  returns FALSE (0000ms, 1061ms total)
T2B68 001:761 JLINK_IsHalted()  returns FALSE (0000ms, 1061ms total)
T2B68 001:763 JLINK_IsHalted()  returns FALSE (0000ms, 1061ms total)
T2B68 001:772 JLINK_IsHalted()  returns FALSE (0001ms, 1062ms total)
T2B68 001:774 JLINK_IsHalted()  returns FALSE (0001ms, 1062ms total)
T2B68 001:783 JLINK_IsHalted() -- CPU_ReadMem(2 bytes @ 0x20000000)  returns TRUE (0003ms, 1064ms total)
T2B68 001:786 JLINK_ReadReg(R15 (PC))  returns 0x20000000 (0000ms, 1061ms total)
T2B68 001:786 JLINK_ClrBPEx(BPHandle = 0x00000007)  returns 0x00 (0000ms, 1061ms total)
T2B68 001:786 JLINK_ReadReg(R0)  returns 0x00000000 (0000ms, 1061ms total)
T2B68 001:787 JLINK_WriteReg(R0, 0x08000C00)  returns 0x00 (0000ms, 1061ms total)
T2B68 001:787 JLINK_WriteReg(R1, 0x00000400)  returns 0x00 (0000ms, 1061ms total)
T2B68 001:787 JLINK_WriteReg(R2, 0x000000FF)  returns 0x00 (0000ms, 1061ms total)
T2B68 001:787 JLINK_WriteReg(R3, 0x00000000)  returns 0x00 (0000ms, 1061ms total)
T2B68 001:787 JLINK_WriteReg(R4, 0x00000000)  returns 0x00 (0000ms, 1061ms total)
T2B68 001:787 JLINK_WriteReg(R5, 0x00000000)  returns 0x00 (0000ms, 1061ms total)
T2B68 001:787 JLINK_WriteReg(R6, 0x00000000)  returns 0x00 (0000ms, 1061ms total)
T2B68 001:787 JLINK_WriteReg(R7, 0x00000000)  returns 0x00 (0000ms, 1061ms total)
T2B68 001:787 JLINK_WriteReg(R8, 0x00000000)  returns 0x00 (0000ms, 1061ms total)
T2B68 001:787 JLINK_WriteReg(R9, 0x2000016C)  returns 0x00 (0000ms, 1061ms total)
T2B68 001:787 JLINK_WriteReg(R10, 0x00000000)  returns 0x00 (0000ms, 1061ms total)
T2B68 001:787 JLINK_WriteReg(R11, 0x00000000)  returns 0x00 (0000ms, 1061ms total)
T2B68 001:787 JLINK_WriteReg(R12, 0x00000000)  returns 0x00 (0000ms, 1061ms total)
T2B68 001:787 JLINK_WriteReg(R13 (SP), 0x20001000)  returns 0x00 (0000ms, 1061ms total)
T2B68 001:787 JLINK_WriteReg(R14, 0x20000001)  returns 0x00 (0000ms, 1061ms total)
T2B68 001:787 JLINK_WriteReg(R15 (PC), 0x20000020)  returns 0x00 (0000ms, 1061ms total)
T2B68 001:788 JLINK_WriteReg(XPSR, 0x01000000)  returns 0x00 (0000ms, 1061ms total)
T2B68 001:788 JLINK_WriteReg(MSP, 0x20001000)  returns 0x00 (0000ms, 1061ms total)
T2B68 001:788 JLINK_WriteReg(PSP, 0x20001000)  returns 0x00 (0000ms, 1061ms total)
T2B68 001:788 JLINK_WriteReg(CFBP, 0x00000000)  returns 0x00 (0000ms, 1061ms total)
T2B68 001:788 JLINK_SetBPEx(Addr = 0x20000000, Type = 0xFFFFFFF2)  returns 0x00000008 (0000ms, 1061ms total)
T2B68 001:788 JLINK_Go() (0001ms, 1062ms total)
T2B68 001:789 JLINK_IsHalted() -- CPU_ReadMem(2 bytes @ 0x20000000)  returns TRUE (0003ms, 1065ms total)
T2B68 001:792 JLINK_ReadReg(R15 (PC))  returns 0x20000000 (0000ms, 1062ms total)
T2B68 001:792 JLINK_ClrBPEx(BPHandle = 0x00000008)  returns 0x00 (0001ms, 1063ms total)
T2B68 001:793 JLINK_ReadReg(R0)  returns 0x00000001 (0000ms, 1063ms total)
T2B68 001:793 JLINK_WriteReg(R0, 0x08000C00)  returns 0x00 (0000ms, 1063ms total)
T2B68 001:793 JLINK_WriteReg(R1, 0x00000400)  returns 0x00 (0000ms, 1063ms total)
T2B68 001:793 JLINK_WriteReg(R2, 0x000000FF)  returns 0x00 (0000ms, 1063ms total)
T2B68 001:793 JLINK_WriteReg(R3, 0x00000000)  returns 0x00 (0000ms, 1063ms total)
T2B68 001:793 JLINK_WriteReg(R4, 0x00000000)  returns 0x00 (0000ms, 1063ms total)
T2B68 001:793 JLINK_WriteReg(R5, 0x00000000)  returns 0x00 (0000ms, 1063ms total)
T2B68 001:793 JLINK_WriteReg(R6, 0x00000000)  returns 0x00 (0000ms, 1063ms total)
T2B68 001:793 JLINK_WriteReg(R7, 0x00000000)  returns 0x00 (0000ms, 1063ms total)
T2B68 001:793 JLINK_WriteReg(R8, 0x00000000)  returns 0x00 (0000ms, 1063ms total)
T2B68 001:793 JLINK_WriteReg(R9, 0x2000016C)  returns 0x00 (0000ms, 1063ms total)
T2B68 001:793 JLINK_WriteReg(R10, 0x00000000)  returns 0x00 (0000ms, 1063ms total)
T2B68 001:793 JLINK_WriteReg(R11, 0x00000000)  returns 0x00 (0000ms, 1063ms total)
T2B68 001:793 JLINK_WriteReg(R12, 0x00000000)  returns 0x00 (0000ms, 1063ms total)
T2B68 001:793 JLINK_WriteReg(R13 (SP), 0x20001000)  returns 0x00 (0000ms, 1063ms total)
T2B68 001:793 JLINK_WriteReg(R14, 0x20000001)  returns 0x00 (0000ms, 1063ms total)
T2B68 001:793 JLINK_WriteReg(R15 (PC), 0x200000B8)  returns 0x00 (0000ms, 1063ms total)
T2B68 001:793 JLINK_WriteReg(XPSR, 0x01000000)  returns 0x00 (0000ms, 1063ms total)
T2B68 001:793 JLINK_WriteReg(MSP, 0x20001000)  returns 0x00 (0000ms, 1063ms total)
T2B68 001:793 JLINK_WriteReg(PSP, 0x20001000)  returns 0x00 (0000ms, 1063ms total)
T2B68 001:793 JLINK_WriteReg(CFBP, 0x00000000)  returns 0x00 (0000ms, 1063ms total)
T2B68 001:793 JLINK_SetBPEx(Addr = 0x20000000, Type = 0xFFFFFFF2)  returns 0x00000009 (0000ms, 1063ms total)
T2B68 001:793 JLINK_Go() (0002ms, 1065ms total)
T2B68 001:795 JLINK_IsHalted()  returns FALSE (0000ms, 1065ms total)
T2B68 001:800 JLINK_IsHalted()  returns FALSE (0000ms, 1065ms total)
T2B68 001:802 JLINK_IsHalted()  returns FALSE (0000ms, 1065ms total)
T2B68 001:804 JLINK_IsHalted()  returns FALSE (0000ms, 1065ms total)
T2B68 001:806 JLINK_IsHalted()  returns FALSE (0000ms, 1065ms total)
T2B68 001:863 JLINK_IsHalted() -- CPU_ReadMem(2 bytes @ 0x20000000)  returns TRUE (0004ms, 1069ms total)
T2B68 001:867 JLINK_ReadReg(R15 (PC))  returns 0x20000000 (0000ms, 1065ms total)
T2B68 001:867 JLINK_ClrBPEx(BPHandle = 0x00000009)  returns 0x00 (0000ms, 1065ms total)
T2B68 001:867 JLINK_ReadReg(R0)  returns 0x00000000 (0000ms, 1065ms total)
T2B68 001:868 JLINK_WriteReg(R0, 0x08001000)  returns 0x00 (0000ms, 1065ms total)
T2B68 001:868 JLINK_WriteReg(R1, 0x00000400)  returns 0x00 (0000ms, 1065ms total)
T2B68 001:868 JLINK_WriteReg(R2, 0x000000FF)  returns 0x00 (0000ms, 1065ms total)
T2B68 001:869 JLINK_WriteReg(R3, 0x00000000)  returns 0x00 (0000ms, 1066ms total)
T2B68 001:869 JLINK_WriteReg(R4, 0x00000000)  returns 0x00 (0000ms, 1066ms total)
T2B68 001:869 JLINK_WriteReg(R5, 0x00000000)  returns 0x00 (0000ms, 1066ms total)
T2B68 001:869 JLINK_WriteReg(R6, 0x00000000)  returns 0x00 (0000ms, 1066ms total)
T2B68 001:869 JLINK_WriteReg(R7, 0x00000000)  returns 0x00 (0000ms, 1066ms total)
T2B68 001:869 JLINK_WriteReg(R8, 0x00000000)  returns 0x00 (0000ms, 1066ms total)
T2B68 001:869 JLINK_WriteReg(R9, 0x2000016C)  returns 0x00 (0000ms, 1066ms total)
T2B68 001:869 JLINK_WriteReg(R10, 0x00000000)  returns 0x00 (0000ms, 1066ms total)
T2B68 001:869 JLINK_WriteReg(R11, 0x00000000)  returns 0x00 (0000ms, 1066ms total)
T2B68 001:869 JLINK_WriteReg(R12, 0x00000000)  returns 0x00 (0000ms, 1066ms total)
T2B68 001:869 JLINK_WriteReg(R13 (SP), 0x20001000)  returns 0x00 (0000ms, 1066ms total)
T2B68 001:869 JLINK_WriteReg(R14, 0x20000001)  returns 0x00 (0000ms, 1066ms total)
T2B68 001:869 JLINK_WriteReg(R15 (PC), 0x20000020)  returns 0x00 (0000ms, 1066ms total)
T2B68 001:869 JLINK_WriteReg(XPSR, 0x01000000)  returns 0x00 (0000ms, 1066ms total)
T2B68 001:869 JLINK_WriteReg(MSP, 0x20001000)  returns 0x00 (0000ms, 1066ms total)
T2B68 001:869 JLINK_WriteReg(PSP, 0x20001000)  returns 0x00 (0000ms, 1066ms total)
T2B68 001:869 JLINK_WriteReg(CFBP, 0x00000000)  returns 0x00 (0000ms, 1066ms total)
T2B68 001:869 JLINK_SetBPEx(Addr = 0x20000000, Type = 0xFFFFFFF2)  returns 0x0000000A (0000ms, 1066ms total)
T2B68 001:869 JLINK_Go() (0002ms, 1068ms total)
T2B68 001:871 JLINK_IsHalted() -- CPU_ReadMem(2 bytes @ 0x20000000)  returns TRUE (0003ms, 1071ms total)
T2B68 001:874 JLINK_ReadReg(R15 (PC))  returns 0x20000000 (0000ms, 1068ms total)
T2B68 001:874 JLINK_ClrBPEx(BPHandle = 0x0000000A)  returns 0x00 (0000ms, 1068ms total)
T2B68 001:874 JLINK_ReadReg(R0)  returns 0x00000001 (0000ms, 1068ms total)
T2B68 001:874 JLINK_WriteReg(R0, 0x08001000)  returns 0x00 (0000ms, 1068ms total)
T2B68 001:874 JLINK_WriteReg(R1, 0x00000400)  returns 0x00 (0000ms, 1068ms total)
T2B68 001:874 JLINK_WriteReg(R2, 0x000000FF)  returns 0x00 (0000ms, 1068ms total)
T2B68 001:874 JLINK_WriteReg(R3, 0x00000000)  returns 0x00 (0000ms, 1068ms total)
T2B68 001:874 JLINK_WriteReg(R4, 0x00000000)  returns 0x00 (0000ms, 1068ms total)
T2B68 001:874 JLINK_WriteReg(R5, 0x00000000)  returns 0x00 (0000ms, 1068ms total)
T2B68 001:874 JLINK_WriteReg(R6, 0x00000000)  returns 0x00 (0000ms, 1068ms total)
T2B68 001:874 JLINK_WriteReg(R7, 0x00000000)  returns 0x00 (0001ms, 1069ms total)
T2B68 001:875 JLINK_WriteReg(R8, 0x00000000)  returns 0x00 (0000ms, 1069ms total)
T2B68 001:875 JLINK_WriteReg(R9, 0x2000016C)  returns 0x00 (0000ms, 1069ms total)
T2B68 001:875 JLINK_WriteReg(R10, 0x00000000)  returns 0x00 (0000ms, 1069ms total)
T2B68 001:875 JLINK_WriteReg(R11, 0x00000000)  returns 0x00 (0000ms, 1069ms total)
T2B68 001:875 JLINK_WriteReg(R12, 0x00000000)  returns 0x00 (0000ms, 1069ms total)
T2B68 001:875 JLINK_WriteReg(R13 (SP), 0x20001000)  returns 0x00 (0000ms, 1069ms total)
T2B68 001:875 JLINK_WriteReg(R14, 0x20000001)  returns 0x00 (0000ms, 1069ms total)
T2B68 001:875 JLINK_WriteReg(R15 (PC), 0x200000B8)  returns 0x00 (0000ms, 1069ms total)
T2B68 001:875 JLINK_WriteReg(XPSR, 0x01000000)  returns 0x00 (0000ms, 1069ms total)
T2B68 001:875 JLINK_WriteReg(MSP, 0x20001000)  returns 0x00 (0000ms, 1069ms total)
T2B68 001:875 JLINK_WriteReg(PSP, 0x20001000)  returns 0x00 (0000ms, 1069ms total)
T2B68 001:875 JLINK_WriteReg(CFBP, 0x00000000)  returns 0x00 (0000ms, 1069ms total)
T2B68 001:875 JLINK_SetBPEx(Addr = 0x20000000, Type = 0xFFFFFFF2)  returns 0x0000000B (0000ms, 1069ms total)
T2B68 001:875 JLINK_Go() (0001ms, 1070ms total)
T2B68 001:877 JLINK_IsHalted()  returns FALSE (0000ms, 1071ms total)
T2B68 001:879 JLINK_IsHalted()  returns FALSE (0000ms, 1071ms total)
T2B68 001:881 JLINK_IsHalted()  returns FALSE (0000ms, 1071ms total)
T2B68 001:883 JLINK_IsHalted()  returns FALSE (0000ms, 1071ms total)
T2B68 001:893 JLINK_IsHalted()  returns FALSE (0000ms, 1071ms total)
T2B68 001:895 JLINK_IsHalted()  returns FALSE (0000ms, 1071ms total)
T2B68 001:898 JLINK_IsHalted()  returns FALSE (0000ms, 1071ms total)
T2B68 001:900 JLINK_IsHalted() -- CPU_ReadMem(2 bytes @ 0x20000000)  returns TRUE (0003ms, 1074ms total)
T2B68 001:903 JLINK_ReadReg(R15 (PC))  returns 0x20000000 (0000ms, 1071ms total)
T2B68 001:903 JLINK_ClrBPEx(BPHandle = 0x0000000B)  returns 0x00 (0000ms, 1071ms total)
T2B68 001:903 JLINK_ReadReg(R0)  returns 0x00000000 (0000ms, 1071ms total)
T2B68 001:904 JLINK_WriteReg(R0, 0x08001400)  returns 0x00 (0001ms, 1072ms total)
T2B68 001:905 JLINK_WriteReg(R1, 0x00000400)  returns 0x00 (0000ms, 1072ms total)
T2B68 001:905 JLINK_WriteReg(R2, 0x000000FF)  returns 0x00 (0000ms, 1072ms total)
T2B68 001:905 JLINK_WriteReg(R3, 0x00000000)  returns 0x00 (0000ms, 1072ms total)
T2B68 001:905 JLINK_WriteReg(R4, 0x00000000)  returns 0x00 (0000ms, 1072ms total)
T2B68 001:905 JLINK_WriteReg(R5, 0x00000000)  returns 0x00 (0000ms, 1072ms total)
T2B68 001:905 JLINK_WriteReg(R6, 0x00000000)  returns 0x00 (0000ms, 1072ms total)
T2B68 001:905 JLINK_WriteReg(R7, 0x00000000)  returns 0x00 (0000ms, 1072ms total)
T2B68 001:905 JLINK_WriteReg(R8, 0x00000000)  returns 0x00 (0000ms, 1072ms total)
T2B68 001:905 JLINK_WriteReg(R9, 0x2000016C)  returns 0x00 (0000ms, 1072ms total)
T2B68 001:905 JLINK_WriteReg(R10, 0x00000000)  returns 0x00 (0000ms, 1072ms total)
T2B68 001:905 JLINK_WriteReg(R11, 0x00000000)  returns 0x00 (0000ms, 1072ms total)
T2B68 001:905 JLINK_WriteReg(R12, 0x00000000)  returns 0x00 (0000ms, 1072ms total)
T2B68 001:905 JLINK_WriteReg(R13 (SP), 0x20001000)  returns 0x00 (0000ms, 1072ms total)
T2B68 001:905 JLINK_WriteReg(R14, 0x20000001)  returns 0x00 (0000ms, 1072ms total)
T2B68 001:905 JLINK_WriteReg(R15 (PC), 0x20000020)  returns 0x00 (0000ms, 1072ms total)
T2B68 001:905 JLINK_WriteReg(XPSR, 0x01000000)  returns 0x00 (0000ms, 1072ms total)
T2B68 001:905 JLINK_WriteReg(MSP, 0x20001000)  returns 0x00 (0000ms, 1072ms total)
T2B68 001:905 JLINK_WriteReg(PSP, 0x20001000)  returns 0x00 (0000ms, 1072ms total)
T2B68 001:905 JLINK_WriteReg(CFBP, 0x00000000)  returns 0x00 (0000ms, 1072ms total)
T2B68 001:905 JLINK_SetBPEx(Addr = 0x20000000, Type = 0xFFFFFFF2)  returns 0x0000000C (0000ms, 1072ms total)
T2B68 001:905 JLINK_Go() (0002ms, 1074ms total)
T2B68 001:907 JLINK_IsHalted() -- CPU_ReadMem(2 bytes @ 0x20000000)  returns TRUE (0003ms, 1077ms total)
T2B68 001:910 JLINK_ReadReg(R15 (PC))  returns 0x20000000 (0000ms, 1074ms total)
T2B68 001:910 JLINK_ClrBPEx(BPHandle = 0x0000000C)  returns 0x00 (0000ms, 1074ms total)
T2B68 001:910 JLINK_ReadReg(R0)  returns 0x00000001 (0000ms, 1074ms total)
T2B68 001:910 JLINK_WriteReg(R0, 0x08001400)  returns 0x00 (0000ms, 1074ms total)
T2B68 001:910 JLINK_WriteReg(R1, 0x00000400)  returns 0x00 (0000ms, 1074ms total)
T2B68 001:910 JLINK_WriteReg(R2, 0x000000FF)  returns 0x00 (0000ms, 1074ms total)
T2B68 001:910 JLINK_WriteReg(R3, 0x00000000)  returns 0x00 (0000ms, 1074ms total)
T2B68 001:910 JLINK_WriteReg(R4, 0x00000000)  returns 0x00 (0000ms, 1074ms total)
T2B68 001:910 JLINK_WriteReg(R5, 0x00000000)  returns 0x00 (0000ms, 1074ms total)
T2B68 001:910 JLINK_WriteReg(R6, 0x00000000)  returns 0x00 (0000ms, 1074ms total)
T2B68 001:910 JLINK_WriteReg(R7, 0x00000000)  returns 0x00 (0000ms, 1074ms total)
T2B68 001:910 JLINK_WriteReg(R8, 0x00000000)  returns 0x00 (0000ms, 1074ms total)
T2B68 001:910 JLINK_WriteReg(R9, 0x2000016C)  returns 0x00 (0000ms, 1074ms total)
T2B68 001:911 JLINK_WriteReg(R10, 0x00000000)  returns 0x00 (0000ms, 1075ms total)
T2B68 001:911 JLINK_WriteReg(R11, 0x00000000)  returns 0x00 (0000ms, 1075ms total)
T2B68 001:911 JLINK_WriteReg(R12, 0x00000000)  returns 0x00 (0000ms, 1075ms total)
T2B68 001:911 JLINK_WriteReg(R13 (SP), 0x20001000)  returns 0x00 (0000ms, 1075ms total)
T2B68 001:911 JLINK_WriteReg(R14, 0x20000001)  returns 0x00 (0000ms, 1075ms total)
T2B68 001:911 JLINK_WriteReg(R15 (PC), 0x200000B8)  returns 0x00 (0000ms, 1075ms total)
T2B68 001:911 JLINK_WriteReg(XPSR, 0x01000000)  returns 0x00 (0000ms, 1075ms total)
T2B68 001:911 JLINK_WriteReg(MSP, 0x20001000)  returns 0x00 (0000ms, 1075ms total)
T2B68 001:911 JLINK_WriteReg(PSP, 0x20001000)  returns 0x00 (0000ms, 1075ms total)
T2B68 001:911 JLINK_WriteReg(CFBP, 0x00000000)  returns 0x00 (0000ms, 1075ms total)
T2B68 001:911 JLINK_SetBPEx(Addr = 0x20000000, Type = 0xFFFFFFF2)  returns 0x0000000D (0000ms, 1075ms total)
T2B68 001:911 JLINK_Go() (0001ms, 1076ms total)
T2B68 001:913 JLINK_IsHalted()  returns FALSE (0001ms, 1077ms total)
T2B68 001:920 JLINK_IsHalted()  returns FALSE (0001ms, 1077ms total)
T2B68 001:922 JLINK_IsHalted()  returns FALSE (0001ms, 1077ms total)
T2B68 001:928 JLINK_IsHalted()  returns FALSE (0001ms, 1077ms total)
T2B68 001:930 JLINK_IsHalted()  returns FALSE (0001ms, 1077ms total)
T2B68 001:934 JLINK_IsHalted() -- CPU_ReadMem(2 bytes @ 0x20000000)  returns TRUE (0003ms, 1079ms total)
T2B68 001:937 JLINK_ReadReg(R15 (PC))  returns 0x20000000 (0000ms, 1076ms total)
T2B68 001:937 JLINK_ClrBPEx(BPHandle = 0x0000000D)  returns 0x00 (0000ms, 1076ms total)
T2B68 001:937 JLINK_ReadReg(R0)  returns 0x00000000 (0000ms, 1076ms total)
T2B68 001:939 JLINK_WriteReg(R0, 0x08001800)  returns 0x00 (0000ms, 1076ms total)
T2B68 001:939 JLINK_WriteReg(R1, 0x00000400)  returns 0x00 (0000ms, 1076ms total)
T2B68 001:939 JLINK_WriteReg(R2, 0x000000FF)  returns 0x00 (0000ms, 1076ms total)
T2B68 001:939 JLINK_WriteReg(R3, 0x00000000)  returns 0x00 (0000ms, 1076ms total)
T2B68 001:939 JLINK_WriteReg(R4, 0x00000000)  returns 0x00 (0000ms, 1076ms total)
T2B68 001:939 JLINK_WriteReg(R5, 0x00000000)  returns 0x00 (0000ms, 1076ms total)
T2B68 001:939 JLINK_WriteReg(R6, 0x00000000)  returns 0x00 (0000ms, 1076ms total)
T2B68 001:939 JLINK_WriteReg(R7, 0x00000000)  returns 0x00 (0000ms, 1076ms total)
T2B68 001:939 JLINK_WriteReg(R8, 0x00000000)  returns 0x00 (0000ms, 1076ms total)
T2B68 001:939 JLINK_WriteReg(R9, 0x2000016C)  returns 0x00 (0000ms, 1076ms total)
T2B68 001:939 JLINK_WriteReg(R10, 0x00000000)  returns 0x00 (0000ms, 1076ms total)
T2B68 001:939 JLINK_WriteReg(R11, 0x00000000)  returns 0x00 (0000ms, 1076ms total)
T2B68 001:939 JLINK_WriteReg(R12, 0x00000000)  returns 0x00 (0000ms, 1076ms total)
T2B68 001:939 JLINK_WriteReg(R13 (SP), 0x20001000)  returns 0x00 (0000ms, 1076ms total)
T2B68 001:939 JLINK_WriteReg(R14, 0x20000001)  returns 0x00 (0000ms, 1076ms total)
T2B68 001:939 JLINK_WriteReg(R15 (PC), 0x20000020)  returns 0x00 (0000ms, 1076ms total)
T2B68 001:939 JLINK_WriteReg(XPSR, 0x01000000)  returns 0x00 (0000ms, 1076ms total)
T2B68 001:939 JLINK_WriteReg(MSP, 0x20001000)  returns 0x00 (0000ms, 1076ms total)
T2B68 001:939 JLINK_WriteReg(PSP, 0x20001000)  returns 0x00 (0000ms, 1076ms total)
T2B68 001:939 JLINK_WriteReg(CFBP, 0x00000000)  returns 0x00 (0000ms, 1076ms total)
T2B68 001:939 JLINK_SetBPEx(Addr = 0x20000000, Type = 0xFFFFFFF2)  returns 0x0000000E (0000ms, 1076ms total)
T2B68 001:939 JLINK_Go() (0002ms, 1078ms total)
T2B68 001:941 JLINK_IsHalted() -- CPU_ReadMem(2 bytes @ 0x20000000)  returns TRUE (0003ms, 1081ms total)
T2B68 001:944 JLINK_ReadReg(R15 (PC))  returns 0x20000000 (0000ms, 1078ms total)
T2B68 001:945 JLINK_ClrBPEx(BPHandle = 0x0000000E)  returns 0x00 (0000ms, 1079ms total)
T2B68 001:945 JLINK_ReadReg(R0)  returns 0x00000001 (0000ms, 1079ms total)
T2B68 001:945 JLINK_WriteReg(R0, 0x08001800)  returns 0x00 (0000ms, 1079ms total)
T2B68 001:945 JLINK_WriteReg(R1, 0x00000400)  returns 0x00 (0000ms, 1079ms total)
T2B68 001:945 JLINK_WriteReg(R2, 0x000000FF)  returns 0x00 (0000ms, 1079ms total)
T2B68 001:945 JLINK_WriteReg(R3, 0x00000000)  returns 0x00 (0000ms, 1079ms total)
T2B68 001:945 JLINK_WriteReg(R4, 0x00000000)  returns 0x00 (0000ms, 1079ms total)
T2B68 001:945 JLINK_WriteReg(R5, 0x00000000)  returns 0x00 (0000ms, 1079ms total)
T2B68 001:945 JLINK_WriteReg(R6, 0x00000000)  returns 0x00 (0000ms, 1079ms total)
T2B68 001:945 JLINK_WriteReg(R7, 0x00000000)  returns 0x00 (0000ms, 1079ms total)
T2B68 001:945 JLINK_WriteReg(R8, 0x00000000)  returns 0x00 (0000ms, 1079ms total)
T2B68 001:945 JLINK_WriteReg(R9, 0x2000016C)  returns 0x00 (0000ms, 1079ms total)
T2B68 001:945 JLINK_WriteReg(R10, 0x00000000)  returns 0x00 (0000ms, 1079ms total)
T2B68 001:945 JLINK_WriteReg(R11, 0x00000000)  returns 0x00 (0000ms, 1079ms total)
T2B68 001:945 JLINK_WriteReg(R12, 0x00000000)  returns 0x00 (0000ms, 1079ms total)
T2B68 001:945 JLINK_WriteReg(R13 (SP), 0x20001000)  returns 0x00 (0000ms, 1079ms total)
T2B68 001:945 JLINK_WriteReg(R14, 0x20000001)  returns 0x00 (0000ms, 1079ms total)
T2B68 001:945 JLINK_WriteReg(R15 (PC), 0x200000B8)  returns 0x00 (0000ms, 1079ms total)
T2B68 001:945 JLINK_WriteReg(XPSR, 0x01000000)  returns 0x00 (0000ms, 1079ms total)
T2B68 001:945 JLINK_WriteReg(MSP, 0x20001000)  returns 0x00 (0000ms, 1079ms total)
T2B68 001:945 JLINK_WriteReg(PSP, 0x20001000)  returns 0x00 (0000ms, 1079ms total)
T2B68 001:945 JLINK_WriteReg(CFBP, 0x00000000)  returns 0x00 (0000ms, 1079ms total)
T2B68 001:945 JLINK_SetBPEx(Addr = 0x20000000, Type = 0xFFFFFFF2)  returns 0x0000000F (0000ms, 1079ms total)
T2B68 001:945 JLINK_Go() (0001ms, 1080ms total)
T2B68 001:946 JLINK_IsHalted()  returns FALSE (0001ms, 1081ms total)
T2B68 001:951 JLINK_IsHalted()  returns FALSE (0001ms, 1081ms total)
T2B68 001:954 JLINK_IsHalted()  returns FALSE (0001ms, 1081ms total)
T2B68 001:956 JLINK_IsHalted()  returns FALSE (0001ms, 1081ms total)
T2B68 001:960 JLINK_IsHalted()  returns FALSE (0000ms, 1080ms total)
T2B68 001:962 JLINK_IsHalted()  returns FALSE (0000ms, 1080ms total)
T2B68 001:964 JLINK_IsHalted()  returns FALSE (0000ms, 1080ms total)
T2B68 001:966 JLINK_IsHalted()  returns FALSE (0000ms, 1080ms total)
T2B68 001:969 JLINK_IsHalted() -- CPU_ReadMem(2 bytes @ 0x20000000)  returns TRUE (0003ms, 1083ms total)
T2B68 001:972 JLINK_ReadReg(R15 (PC))  returns 0x20000000 (0000ms, 1080ms total)
T2B68 001:972 JLINK_ClrBPEx(BPHandle = 0x0000000F)  returns 0x00 (0000ms, 1080ms total)
T2B68 001:972 JLINK_ReadReg(R0)  returns 0x00000000 (0000ms, 1080ms total)
T2B68 001:974 JLINK_WriteReg(R0, 0x08001C00)  returns 0x00 (0000ms, 1080ms total)
T2B68 001:974 JLINK_WriteReg(R1, 0x00000400)  returns 0x00 (0000ms, 1080ms total)
T2B68 001:974 JLINK_WriteReg(R2, 0x000000FF)  returns 0x00 (0000ms, 1080ms total)
T2B68 001:974 JLINK_WriteReg(R3, 0x00000000)  returns 0x00 (0000ms, 1080ms total)
T2B68 001:974 JLINK_WriteReg(R4, 0x00000000)  returns 0x00 (0000ms, 1080ms total)
T2B68 001:974 JLINK_WriteReg(R5, 0x00000000)  returns 0x00 (0000ms, 1080ms total)
T2B68 001:974 JLINK_WriteReg(R6, 0x00000000)  returns 0x00 (0000ms, 1080ms total)
T2B68 001:974 JLINK_WriteReg(R7, 0x00000000)  returns 0x00 (0000ms, 1080ms total)
T2B68 001:974 JLINK_WriteReg(R8, 0x00000000)  returns 0x00 (0000ms, 1080ms total)
T2B68 001:974 JLINK_WriteReg(R9, 0x2000016C)  returns 0x00 (0000ms, 1080ms total)
T2B68 001:974 JLINK_WriteReg(R10, 0x00000000)  returns 0x00 (0000ms, 1080ms total)
T2B68 001:974 JLINK_WriteReg(R11, 0x00000000)  returns 0x00 (0000ms, 1080ms total)
T2B68 001:974 JLINK_WriteReg(R12, 0x00000000)  returns 0x00 (0000ms, 1080ms total)
T2B68 001:974 JLINK_WriteReg(R13 (SP), 0x20001000)  returns 0x00 (0000ms, 1080ms total)
T2B68 001:974 JLINK_WriteReg(R14, 0x20000001)  returns 0x00 (0000ms, 1080ms total)
T2B68 001:974 JLINK_WriteReg(R15 (PC), 0x20000020)  returns 0x00 (0000ms, 1080ms total)
T2B68 001:974 JLINK_WriteReg(XPSR, 0x01000000)  returns 0x00 (0000ms, 1080ms total)
T2B68 001:974 JLINK_WriteReg(MSP, 0x20001000)  returns 0x00 (0000ms, 1080ms total)
T2B68 001:974 JLINK_WriteReg(PSP, 0x20001000)  returns 0x00 (0000ms, 1080ms total)
T2B68 001:974 JLINK_WriteReg(CFBP, 0x00000000)  returns 0x00 (0000ms, 1080ms total)
T2B68 001:974 JLINK_SetBPEx(Addr = 0x20000000, Type = 0xFFFFFFF2)  returns 0x00000010 (0000ms, 1080ms total)
T2B68 001:974 JLINK_Go() (0002ms, 1082ms total)
T2B68 001:976 JLINK_IsHalted() -- CPU_ReadMem(2 bytes @ 0x20000000)  returns TRUE (0003ms, 1085ms total)
T2B68 001:979 JLINK_ReadReg(R15 (PC))  returns 0x20000000 (0000ms, 1082ms total)
T2B68 001:979 JLINK_ClrBPEx(BPHandle = 0x00000010)  returns 0x00 (0000ms, 1082ms total)
T2B68 001:979 JLINK_ReadReg(R0)  returns 0x00000001 (0000ms, 1082ms total)
T2B68 001:979 JLINK_WriteReg(R0, 0x08001C00)  returns 0x00 (0000ms, 1082ms total)
T2B68 001:979 JLINK_WriteReg(R1, 0x00000400)  returns 0x00 (0000ms, 1082ms total)
